VGS,IDS,sqrtIDS,V_GS_Eq,I_Eq,Threshold,Kn,
0.0,0.0,0.0,3.342,2.575655256434758,3.1259403668017,243.31504707606078,
0.5,0.0,0.0,3.428,3.2877043662713956,
1.0,0.0,0.0,3.487,3.905764969887461,
1.5,0.0,0.0,3.54,4.445447109121871,
2.0,0.0,0.0,3.581,4.938623289946299,
2.5,0.0,0.0,3.617,5.391474751865208,
2.965,0.353,0.5941380311005179,3.65,5.811798344746658,
3.221,2.813,1.6772000476985445,3.686,6.20120955943274,
3.342,6.634,2.575655256434758,3.721,6.568409244253893,
3.428,10.809,3.2877043662713956,3.753,6.918236769582261,
3.487,15.255,3.905764969887461,3.7830000000000004,7.252654686388977,
3.54,19.762,4.445447109121871,3.809,7.575024752434806,
3.581,24.39,4.938623289946299,3.836000000000001,7.878388160023597,
3.617,29.068,5.391474751865208,
3.65,33.777,5.811798344746658,
3.686,38.455,6.20120955943274,
3.721,43.144,6.568409244253893,
3.753,47.862,6.918236769582261,
3.7830000000000004,52.601,7.252654686388977,
3.809,57.381,7.575024752434806,
3.836000000000001,62.069,7.878388160023597,
